
T4BE8 000:337 SEGGER J-Link V5.10h Log File (0000ms, 0288ms total)
T4BE8 000:337 DLL Compiled: Jan 21 2016 19:24:29 (0000ms, 0288ms total)
T4BE8 000:337 Logging started @ 2018-01-10 18:54 (0001ms, 0289ms total)
T4BE8 000:338 JLINK_SetWarnOutHandler(...) (0000ms, 0289ms total)
T4BE8 000:338 JLINK_OpenEx(...)
Firmware: J-Link V9 compiled Dec 16 2016 15:34:10
Hardware: V9.40
S/N: 59404172
Feature(s): RDI, GDB, FlashDL, FlashBP, JFlash  returns O.K. (0286ms, 0575ms total)
T4BE8 000:624 JLINK_SetErrorOutHandler(...) (0000ms, 0575ms total)
T4BE8 000:624 JLINK_ExecCommand("ProjectFile = "E:\Work\×ÛºÏ¹ÊÕÏ·ÖÎöÒÇV2.14\C08.03.00009_SM_GSM_test\C04.08.00003_2\Program\Project\JLinkSettings.ini"", ...)  returns 0x00 (0001ms, 0576ms total)
T4BE8 000:636 JLINK_ExecCommand("Device = LPC1778", ...)Device "LPC1778" selected.  returns 0x00 (0016ms, 0592ms total)
T4BE8 000:652 JLINK_ExecCommand("DisableConnectionTimeout", ...)  returns 0x01 (0000ms, 0592ms total)
T4BE8 000:652 JLINK_GetHardwareVersion()  returns 0x16F30 (0000ms, 0592ms total)
T4BE8 000:652 JLINK_GetDLLVersion()  returns 51008 (0000ms, 0592ms total)
T4BE8 000:652 JLINK_GetFirmwareString(...) (0001ms, 0593ms total)
T4BE8 000:679 JLINK_GetDLLVersion()  returns 51008 (0000ms, 0593ms total)
T4BE8 000:679 JLINK_GetCompileDateTime() (0000ms, 0593ms total)
T4BE8 000:684 JLINK_GetFirmwareString(...) (0000ms, 0593ms total)
T4BE8 000:689 JLINK_GetHardwareVersion()  returns 0x16F30 (0000ms, 0593ms total)
T4BE8 000:701 JLINK_TIF_Select(JLINKARM_TIF_SWD)  returns 0x00 (0004ms, 0597ms total)
T4BE8 000:706 JLINK_SetSpeed(5000) (0000ms, 0597ms total)
T4BE8 000:706 JLINK_GetId() >0x108 TIF>Found SWD-DP with ID 0x2BA01477 >0x0D TIF> >0x28 TIF> >0x0D TIF> >0x28 TIF> >0x0D TIF> >0x28 TIF> >0x0D TIF> >0x28 TIF> >0x0D TIF> >0x21 TIF> >0x0D TIF> >0x28 TIF> >0x0D TIF> >0x28 TIF> >0x0D TIF> >0x21 TIF> >0x0D TIF> >0x21 TIF> >0x0D TIF> >0x21 TIF> >0x0D TIF> >0x28 TIF> >0x0D TIF> >0x28 TIF> >0x0D TIF> >0x28 TIF> >0x0D TIF> >0x21 TIF> >0x0D TIF> >0x21 TIF> >0x0D TIF> >0x28 TIF> >0x0D TIF> >0x21 TIF> >0x0D TIF> >0x21 TIF>Found Cortex-M3 r2p0, Little endian.
 -- CPU_ReadMem(4 bytes @ 0xE000EDF0) -- CPU_WriteMem(4 bytes @ 0xE000EDF0) -- CPU_ReadMem(4 bytes @ 0xE0002000)FPUnit: 6 code (BP) slots and 2 literal slots -- CPU_ReadMem(4 bytes @ 0xE000EDFC) -- CPU_WriteMem(4 bytes @ 0xE000EDFC) -- CPU_ReadMem(4 bytes @ 0xE0001000) -- CPU_WriteMem(4 bytes @ 0xE0001000) -- CPU_ReadMem(4 bytes @ 0xE000ED88) -- CPU_WriteMem(4 bytes @ 0xE000ED88) -- CPU_ReadMem(4 bytes @ 0xE000ED88) -- CPU_WriteMem(4 bytes @ 0xE000ED88)CoreSight components:ROMTbl 0 @ E00FF000
 -- CPU_ReadMem(16 bytes @ 0xE00FF000) -- CPU_ReadMem(16 bytes @ 0xE000EFF0) -- CPU_ReadMem(16 bytes @ 0xE000EFE0)ROMTbl 0 [0]: FFF0F000, CID: B105E00D, PID: 002BB000 SCS -- CPU_ReadMem(16 bytes @ 0xE0001FF0) -- CPU_ReadMem(16 bytes @ 0xE0001FE0)ROMTbl 0 [1]: FFF02000, CID: B105E00D, PID: 002BB002 DWT -- CPU_ReadMem(16 bytes @ 0xE0002FF0) -- CPU_ReadMem(16 bytes @ 0xE0002FE0)ROMTbl 0 [2]: FFF03000, CID: B105E00D, PID: 002BB003 FPB -- CPU_ReadMem(16 bytes @ 0xE0000FF0)
 -- CPU_ReadMem(16 bytes @ 0xE0000FE0)ROMTbl 0 [3]: FFF01000, CID: B105E00D, PID: 002BB001 ITM -- CPU_ReadMem(16 bytes @ 0xE00FF010) -- CPU_ReadMem(16 bytes @ 0xE0040FF0) -- CPU_ReadMem(16 bytes @ 0xE0040FE0)ROMTbl 0 [4]: FFF41000, CID: B105900D, PID: 002BB923 TPIU-Lite -- CPU_ReadMem(16 bytes @ 0xE0041FF0) -- CPU_ReadMem(16 bytes @ 0xE0041FE0)ROMTbl 0 [5]: FFF42000, CID: B105900D, PID: 002BB924 ETM-M3 >0x0D TIF> >0x21 TIF>  returns 0x2BA01477 (0114ms, 0711ms total)
T4BE8 000:820 JLINK_GetDLLVersion()  returns 51008 (0000ms, 0711ms total)
T4BE8 000:820 JLINK_CORE_GetFound()  returns 0x30000FF (0000ms, 0711ms total)
T4BE8 000:820 JLINK_GetDebugInfo(0x100) -- Value=0xE00FF000  returns 0x00 (0000ms, 0711ms total)
T4BE8 000:824 JLINK_GetDebugInfo(0x100) -- Value=0xE00FF000  returns 0x00 (0000ms, 0711ms total)
T4BE8 000:824 JLINK_GetDebugInfo(0x101) -- Value=0xE0041000  returns 0x00 (0000ms, 0711ms total)
T4BE8 000:824 JLINK_GetDebugInfo(0x102) -- Value=0x00000000  returns 0x00 (0000ms, 0711ms total)
T4BE8 000:824 JLINK_GetDebugInfo(0x103) -- Value=0xE0040000  returns 0x00 (0000ms, 0711ms total)
T4BE8 000:824 JLINK_GetDebugInfo(0x104) -- Value=0xE0000000  returns 0x00 (0001ms, 0712ms total)
T4BE8 000:825 JLINK_GetDebugInfo(0x105) -- Value=0xE0001000  returns 0x00 (0000ms, 0712ms total)
T4BE8 000:825 JLINK_GetDebugInfo(0x106) -- Value=0xE0002000  returns 0x00 (0000ms, 0712ms total)
T4BE8 000:825 JLINK_GetDebugInfo(0x107) -- Value=0xE000E000  returns 0x00 (0000ms, 0712ms total)
T4BE8 000:825 JLINK_GetDebugInfo(0x10C) -- Value=0xE000EDF0  returns 0x00 (0000ms, 0712ms total)
T4BE8 000:825 JLINK_ReadMemU32(0xE000ED00, 0x0001 Items, ...) -- CPU is running -- CPU_ReadMem(4 bytes @ 0xE000ED00) - Data: 30 C2 2F 41  returns 0x01 (0001ms, 0713ms total)
T4BE8 000:826 JLINK_SetResetType(JLINKARM_RESET_TYPE_NORMAL)  returns JLINKARM_RESET_TYPE_HALT_WP (0000ms, 0713ms total)
T4BE8 000:826 JLINK_Reset() -- CPU is running -- CPU_WriteMem(4 bytes @ 0xE000EDF0) -- CPU is running -- CPU_WriteMem(4 bytes @ 0xE000EDFC) >0x35 TIF> -- CPU is running -- CPU_WriteMem(4 bytes @ 0xE000ED0C) -- CPU is running -- CPU_ReadMem(4 bytes @ 0xE000EDF0) -- CPU is running -- CPU_ReadMem(4 bytes @ 0xE000EDF0) -- CPU is running -- CPU_WriteMem(4 bytes @ 0xE000EDF0) -- CPU is running -- CPU_WriteMem(4 bytes @ 0xE000EDFC) -- CPU is running -- CPU_ReadMem(4 bytes @ 0xE000EDF0)
 -- CPU_WriteMem(4 bytes @ 0xE000EDFC) -- CPU_WriteMem(4 bytes @ 0xE000EDFC) -- CPU_WriteMem(4 bytes @ 0xE000EDFC) -- CPU_WriteMem(4 bytes @ 0xE000EDFC) -- CPU_WriteMem(4 bytes @ 0xE000EDFC) -- CPU_WriteMem(4 bytes @ 0xE0001050) -- CPU_WriteMem(4 bytes @ 0xE0001054) -- CPU_WriteMem(4 bytes @ 0xE0001058) -- CPU_ReadMem(4 bytes @ 0xE0001000) -- CPU_WriteMem(4 bytes @ 0xE000EDFC) -- CPU_WriteMem(4 bytes @ 0xE0001058) -- CPU_ReadMem(4 bytes @ 0x00000004) -- CPU_ReadMem(4 bytes @ 0xE0002000)
 -- CPU_ReadMem(4 bytes @ 0xE0002008) -- CPU_ReadMem(4 bytes @ 0xE000200C) -- CPU_ReadMem(4 bytes @ 0xE0002010) -- CPU_ReadMem(4 bytes @ 0xE0002014) -- CPU_ReadMem(4 bytes @ 0xE0002018) -- CPU_ReadMem(4 bytes @ 0xE000201C) -- CPU_WriteMem(4 bytes @ 0xE0002000) -- CPU_WriteMem(4 bytes @ 0xE0002008) -- CPU_WriteMem(4 bytes @ 0xE000200C) -- CPU_WriteMem(4 bytes @ 0xE0002010) -- CPU_WriteMem(4 bytes @ 0xE0002014) -- CPU_WriteMem(4 bytes @ 0xE0002018) -- CPU_WriteMem(4 bytes @ 0xE000201C)
 -- CPU_ReadMem(4 bytes @ 0xE0001000) -- CPU_WriteMem(4 bytes @ 0xE0002000) -- CPU_WriteMem(4 bytes @ 0xE0002008) -- CPU_WriteMem(4 bytes @ 0xE000200C) -- CPU_WriteMem(4 bytes @ 0xE0002010) -- CPU_WriteMem(4 bytes @ 0xE0002014) -- CPU_WriteMem(4 bytes @ 0xE0002018) -- CPU_WriteMem(4 bytes @ 0xE000201C) -- CPU_WriteMem(4 bytes @ 0xE0002000) -- CPU_ReadMem(4 bytes @ 0xE000EDFC) -- CPU_ReadMem(4 bytes @ 0xE0001000) (0268ms, 0981ms total)
T4BE8 001:094 JLINK_Halt()  returns 0x00 (0000ms, 0981ms total)
T4BE8 001:094 JLINK_IsHalted()  returns TRUE (0000ms, 0981ms total)
T4BE8 001:094 JLINK_ReadMemU32(0xE000EDF0, 0x0001 Items, ...) -- CPU_ReadMem(4 bytes @ 0xE000EDF0) - Data: 03 00 03 00  returns 0x01 (0001ms, 0982ms total)
T4BE8 001:095 JLINK_WriteU32(0xE000EDF0, 0xA05F0003) -- CPU_WriteMem(4 bytes @ 0xE000EDF0)  returns 0x00 (0001ms, 0983ms total)
T4BE8 001:096 JLINK_WriteU32(0xE000EDFC, 0x01000000) -- CPU_WriteMem(4 bytes @ 0xE000EDFC)  returns 0x00 (0001ms, 0984ms total)
T4BE8 001:128 JLINK_GetHWStatus(...)  returns 0x00 (0001ms, 0985ms total)
T4BE8 001:142 JLINK_GetNumBPUnits(Type = 0xFFFFFF00)  returns 0x06 (0000ms, 0985ms total)
T4BE8 001:142 JLINK_GetNumBPUnits(Type = 0xF0)  returns 0x2000 (0000ms, 0985ms total)
T4BE8 001:142 JLINK_GetNumWPUnits()  returns 0x04 (0000ms, 0985ms total)
T4BE8 001:155 JLINK_GetSpeed()  returns 0xFA0 (0000ms, 0985ms total)
T4BE8 001:160 JLINK_ReadMemU32(0xE000E004, 0x0001 Items, ...) -- CPU_ReadMem(4 bytes @ 0xE000E004) - Data: 01 00 00 00  returns 0x01 (0002ms, 0987ms total)
T4BE8 001:162 JLINK_ReadMemU32(0xE000E004, 0x0001 Items, ...) -- CPU_ReadMem(4 bytes @ 0xE000E004) - Data: 01 00 00 00  returns 0x01 (0001ms, 0988ms total)
T4BE8 001:163 JLINK_WriteMem(0xE0001000, 0x001C Bytes, ...) - Data: 01 00 00 00 00 00 00 00 00 00 00 00 00 00 00 00 ... -- CPU_WriteMem(28 bytes @ 0xE0001000)  returns 0x1C (0001ms, 0989ms total)
T4BE8 001:164 JLINK_ReadMem (0xE0001000, 0x001C Bytes, ...) -- CPU_ReadMem(28 bytes @ 0xE0001000) - Data: 01 00 00 40 00 00 00 00 00 00 00 00 00 00 00 00 ...  returns 0x00 (0001ms, 0990ms total)
T4BE8 001:169 JLINK_Halt()  returns 0x00 (0000ms, 0990ms total)
T4BE8 001:169 JLINK_IsHalted()  returns TRUE (0000ms, 0990ms total)
T4BE8 001:170 JLINK_WriteMem(0x10000000, 0x01E4 Bytes, ...) - Data: 00 BE 0A E0 0D 78 2D 06 68 40 08 24 40 00 00 D3 ... -- CPU_WriteMem(484 bytes @ 0x10000000)  returns 0x1E4 (0003ms, 0993ms total)
T4BE8 001:173 JLINK_WriteReg(R0, 0x00000000)  returns 0x00 (0000ms, 0993ms total)
T4BE8 001:173 JLINK_WriteReg(R1, 0x00B71B00)  returns 0x00 (0000ms, 0993ms total)
T4BE8 001:173 JLINK_WriteReg(R2, 0x00000001)  returns 0x00 (0000ms, 0993ms total)
T4BE8 001:173 JLINK_WriteReg(R3, 0x00000000)  returns 0x00 (0000ms, 0993ms total)
T4BE8 001:173 JLINK_WriteReg(R4, 0x00000000)  returns 0x00 (0000ms, 0993ms total)
T4BE8 001:173 JLINK_WriteReg(R5, 0x00000000)  returns 0x00 (0000ms, 0993ms total)
T4BE8 001:173 JLINK_WriteReg(R6, 0x00000000)  returns 0x00 (0000ms, 0993ms total)
T4BE8 001:173 JLINK_WriteReg(R7, 0x00000000)  returns 0x00 (0000ms, 0993ms total)
T4BE8 001:173 JLINK_WriteReg(R8, 0x00000000)  returns 0x00 (0000ms, 0993ms total)
T4BE8 001:173 JLINK_WriteReg(R9, 0x100001DC)  returns 0x00 (0000ms, 0993ms total)
T4BE8 001:173 JLINK_WriteReg(R10, 0x00000000)  returns 0x00 (0000ms, 0993ms total)
T4BE8 001:173 JLINK_WriteReg(R11, 0x00000000)  returns 0x00 (0000ms, 0993ms total)
T4BE8 001:173 JLINK_WriteReg(R12, 0x00000000)  returns 0x00 (0000ms, 0993ms total)
T4BE8 001:173 JLINK_WriteReg(R13 (SP), 0x10000800)  returns 0x00 (0000ms, 0993ms total)
T4BE8 001:173 JLINK_WriteReg(R14, 0x10000001)  returns 0x00 (0000ms, 0993ms total)
T4BE8 001:173 JLINK_WriteReg(R15 (PC), 0x10000044)  returns 0x00 (0000ms, 0993ms total)
T4BE8 001:173 JLINK_WriteReg(XPSR, 0x01000000)  returns 0x00 (0000ms, 0993ms total)
T4BE8 001:173 JLINK_WriteReg(MSP, 0x10000800)  returns 0x00 (0000ms, 0993ms total)
T4BE8 001:173 JLINK_WriteReg(PSP, 0x10000800)  returns 0x00 (0000ms, 0993ms total)
T4BE8 001:173 JLINK_WriteReg(CFBP, 0x00000000)  returns 0x00 (0000ms, 0993ms total)
T4BE8 001:173 JLINK_SetBPEx(Addr = 0x10000000, Type = 0xFFFFFFF2)  returns 0x00000001 (0000ms, 0993ms total)
T4BE8 001:173 JLINK_Go() -- CPU_WriteMem(4 bytes @ 0xE0002000) -- CPU_ReadMem(4 bytes @ 0xE0001000) -- CPU_WriteMem(4 bytes @ 0xE0002008) -- CPU_WriteMem(4 bytes @ 0xE000200C) -- CPU_WriteMem(4 bytes @ 0xE0002010) -- CPU_WriteMem(4 bytes @ 0xE0002014) -- CPU_WriteMem(4 bytes @ 0xE0002018) -- CPU_WriteMem(4 bytes @ 0xE000201C) -- CPU_WriteMem(4 bytes @ 0xE0001004) (0008ms, 1001ms total)
T4BE8 001:181 JLINK_IsHalted()  returns TRUE (0003ms, 1004ms total)
T4BE8 001:184 JLINK_ReadReg(R15 (PC))  returns 0x10000000 (0000ms, 1001ms total)
T4BE8 001:184 JLINK_ClrBPEx(BPHandle = 0x00000001)  returns 0x00 (0000ms, 1001ms total)
T4BE8 001:184 JLINK_ReadReg(R0)  returns 0x00000000 (0000ms, 1001ms total)
T4BE8 001:184 JLINK_WriteReg(R0, 0x00000000)  returns 0x00 (0000ms, 1001ms total)
T4BE8 001:184 JLINK_WriteReg(R1, 0x00B71B00)  returns 0x00 (0000ms, 1001ms total)
T4BE8 001:184 JLINK_WriteReg(R2, 0x00000001)  returns 0x00 (0000ms, 1001ms total)
T4BE8 001:184 JLINK_WriteReg(R3, 0x00000000)  returns 0x00 (0000ms, 1001ms total)
T4BE8 001:184 JLINK_WriteReg(R4, 0x00000000)  returns 0x00 (0000ms, 1001ms total)
T4BE8 001:184 JLINK_WriteReg(R5, 0x00000000)  returns 0x00 (0000ms, 1001ms total)
T4BE8 001:184 JLINK_WriteReg(R6, 0x00000000)  returns 0x00 (0000ms, 1001ms total)
T4BE8 001:184 JLINK_WriteReg(R7, 0x00000000)  returns 0x00 (0000ms, 1001ms total)
T4BE8 001:184 JLINK_WriteReg(R8, 0x00000000)  returns 0x00 (0000ms, 1001ms total)
T4BE8 001:184 JLINK_WriteReg(R9, 0x100001DC)  returns 0x00 (0000ms, 1001ms total)
T4BE8 001:184 JLINK_WriteReg(R10, 0x00000000)  returns 0x00 (0000ms, 1001ms total)
T4BE8 001:184 JLINK_WriteReg(R11, 0x00000000)  returns 0x00 (0000ms, 1001ms total)
T4BE8 001:184 JLINK_WriteReg(R12, 0x00000000)  returns 0x00 (0000ms, 1001ms total)
T4BE8 001:184 JLINK_WriteReg(R13 (SP), 0x10000800)  returns 0x00 (0000ms, 1001ms total)
T4BE8 001:184 JLINK_WriteReg(R14, 0x10000001)  returns 0x00 (0000ms, 1001ms total)
T4BE8 001:184 JLINK_WriteReg(R15 (PC), 0x100000D0)  returns 0x00 (0000ms, 1001ms total)
T4BE8 001:184 JLINK_WriteReg(XPSR, 0x01000000)  returns 0x00 (0000ms, 1001ms total)
T4BE8 001:184 JLINK_WriteReg(MSP, 0x10000800)  returns 0x00 (0001ms, 1002ms total)
T4BE8 001:185 JLINK_WriteReg(PSP, 0x10000800)  returns 0x00 (0000ms, 1002ms total)
T4BE8 001:185 JLINK_WriteReg(CFBP, 0x00000000)  returns 0x00 (0000ms, 1002ms total)
T4BE8 001:185 JLINK_SetBPEx(Addr = 0x10000000, Type = 0xFFFFFFF2)  returns 0x00000002 (0000ms, 1002ms total)
T4BE8 001:185 JLINK_Go() -- CPU_WriteMem(4 bytes @ 0xE0002000) -- CPU_ReadMem(4 bytes @ 0xE0001000) (0004ms, 1006ms total)
T4BE8 001:189 JLINK_IsHalted()  returns FALSE (0001ms, 1007ms total)
T4BE8 001:225 JLINK_IsHalted()  returns FALSE (0001ms, 1007ms total)
T4BE8 001:227 JLINK_IsHalted()  returns FALSE (0000ms, 1006ms total)
T4BE8 001:228 JLINK_IsHalted()  returns FALSE (0001ms, 1007ms total)
T4BE8 001:230 JLINK_IsHalted()  returns FALSE (0000ms, 1006ms total)
T4BE8 001:231 JLINK_IsHalted()  returns FALSE (0000ms, 1006ms total)
T4BE8 001:232 JLINK_IsHalted()  returns FALSE (0001ms, 1007ms total)
T4BE8 001:234 JLINK_IsHalted()  returns FALSE (0000ms, 1006ms total)
T4BE8 001:235 JLINK_IsHalted()  returns FALSE (0000ms, 1006ms total)
T4BE8 001:236 JLINK_IsHalted()  returns FALSE (0000ms, 1006ms total)
T4BE8 001:237 JLINK_IsHalted()  returns FALSE (0000ms, 1006ms total)
T4BE8 001:238 JLINK_IsHalted()  returns FALSE (0000ms, 1006ms total)
T4BE8 001:239 JLINK_IsHalted()  returns FALSE (0000ms, 1006ms total)
T4BE8 001:240 JLINK_IsHalted()  returns FALSE (0000ms, 1006ms total)
T4BE8 001:241 JLINK_IsHalted()  returns FALSE (0000ms, 1006ms total)
T4BE8 001:242 JLINK_IsHalted()  returns FALSE (0001ms, 1007ms total)
T4BE8 001:244 JLINK_IsHalted()  returns FALSE (0000ms, 1006ms total)
T4BE8 001:246 JLINK_IsHalted()  returns FALSE (0001ms, 1007ms total)
T4BE8 001:248 JLINK_IsHalted()  returns FALSE (0001ms, 1007ms total)
T4BE8 001:250 JLINK_IsHalted()  returns FALSE (0000ms, 1006ms total)
T4BE8 001:251 JLINK_IsHalted()  returns FALSE (0001ms, 1007ms total)
T4BE8 001:253 JLINK_IsHalted()  returns FALSE (0001ms, 1007ms total)
T4BE8 001:255 JLINK_IsHalted()  returns FALSE (0001ms, 1007ms total)
T4BE8 001:257 JLINK_IsHalted()  returns FALSE (0001ms, 1007ms total)
T4BE8 001:259 JLINK_IsHalted()  returns FALSE (0001ms, 1007ms total)
T4BE8 001:261 JLINK_IsHalted()  returns FALSE (0001ms, 1007ms total)
T4BE8 001:271 JLINK_IsHalted()  returns FALSE (0001ms, 1007ms total)
T4BE8 001:273 JLINK_IsHalted()  returns FALSE (0001ms, 1007ms total)
T4BE8 001:275 JLINK_IsHalted()  returns FALSE (0001ms, 1007ms total)
T4BE8 001:277 JLINK_IsHalted()  returns FALSE (0000ms, 1006ms total)
T4BE8 001:278 JLINK_IsHalted()  returns FALSE (0000ms, 1006ms total)
T4BE8 001:279 JLINK_IsHalted()  returns FALSE (0001ms, 1007ms total)
T4BE8 001:281 JLINK_IsHalted()  returns FALSE (0001ms, 1007ms total)
T4BE8 001:283 JLINK_IsHalted()  returns FALSE (0000ms, 1006ms total)
T4BE8 001:284 JLINK_IsHalted()  returns FALSE (0001ms, 1007ms total)
T4BE8 001:286 JLINK_IsHalted()  returns FALSE (0001ms, 1007ms total)
T4BE8 001:288 JLINK_IsHalted()  returns FALSE (0000ms, 1006ms total)
T4BE8 001:289 JLINK_IsHalted()  returns TRUE (0003ms, 1009ms total)
T4BE8 001:292 JLINK_ReadReg(R15 (PC))  returns 0x10000000 (0000ms, 1006ms total)
T4BE8 001:292 JLINK_ClrBPEx(BPHandle = 0x00000002)  returns 0x00 (0000ms, 1006ms total)
T4BE8 001:292 JLINK_ReadReg(R0)  returns 0x00000000 (0000ms, 1006ms total)
T4BE8 001:344 JLINK_WriteReg(R0, 0x00000001)  returns 0x00 (0000ms, 1006ms total)
T4BE8 001:344 JLINK_WriteReg(R1, 0x00B71B00)  returns 0x00 (0000ms, 1006ms total)
T4BE8 001:344 JLINK_WriteReg(R2, 0x00000001)  returns 0x00 (0001ms, 1007ms total)
T4BE8 001:345 JLINK_WriteReg(R3, 0x00000000)  returns 0x00 (0000ms, 1007ms total)
T4BE8 001:345 JLINK_WriteReg(R4, 0x00000000)  returns 0x00 (0000ms, 1007ms total)
T4BE8 001:345 JLINK_WriteReg(R5, 0x00000000)  returns 0x00 (0000ms, 1007ms total)
T4BE8 001:345 JLINK_WriteReg(R6, 0x00000000)  returns 0x00 (0000ms, 1007ms total)
T4BE8 001:345 JLINK_WriteReg(R7, 0x00000000)  returns 0x00 (0000ms, 1007ms total)
T4BE8 001:345 JLINK_WriteReg(R8, 0x00000000)  returns 0x00 (0000ms, 1007ms total)
T4BE8 001:345 JLINK_WriteReg(R9, 0x100001DC)  returns 0x00 (0001ms, 1008ms total)
T4BE8 001:346 JLINK_WriteReg(R10, 0x00000000)  returns 0x00 (0000ms, 1008ms total)
T4BE8 001:346 JLINK_WriteReg(R11, 0x00000000)  returns 0x00 (0000ms, 1008ms total)
T4BE8 001:346 JLINK_WriteReg(R12, 0x00000000)  returns 0x00 (0000ms, 1008ms total)
T4BE8 001:346 JLINK_WriteReg(R13 (SP), 0x10000800)  returns 0x00 (0000ms, 1008ms total)
T4BE8 001:346 JLINK_WriteReg(R14, 0x10000001)  returns 0x00 (0000ms, 1008ms total)
T4BE8 001:346 JLINK_WriteReg(R15 (PC), 0x100000CC)  returns 0x00 (0000ms, 1008ms total)
T4BE8 001:347 JLINK_WriteReg(XPSR, 0x01000000)  returns 0x00 (0000ms, 1009ms total)
T4BE8 001:347 JLINK_WriteReg(MSP, 0x10000800)  returns 0x00 (0000ms, 1009ms total)
T4BE8 001:347 JLINK_WriteReg(PSP, 0x10000800)  returns 0x00 (0000ms, 1009ms total)
T4BE8 001:347 JLINK_WriteReg(CFBP, 0x00000000)  returns 0x00 (0000ms, 1009ms total)
T4BE8 001:347 JLINK_SetBPEx(Addr = 0x10000000, Type = 0xFFFFFFF2)  returns 0x00000003 (0000ms, 1009ms total)
T4BE8 001:347 JLINK_Go() -- CPU_WriteMem(4 bytes @ 0xE0002000) -- CPU_ReadMem(4 bytes @ 0xE0001000) (0005ms, 1014ms total)
T4BE8 001:352 JLINK_IsHalted()  returns TRUE (0003ms, 1017ms total)
T4BE8 001:355 JLINK_ReadReg(R15 (PC))  returns 0x10000000 (0000ms, 1014ms total)
T4BE8 001:355 JLINK_ClrBPEx(BPHandle = 0x00000003)  returns 0x00 (0000ms, 1014ms total)
T4BE8 001:355 JLINK_ReadReg(R0)  returns 0x00000000 (0000ms, 1014ms total)
T4BE8 001:370 JLINK_WriteMem(0x10000000, 0x01E4 Bytes, ...) - Data: 00 BE 0A E0 0D 78 2D 06 68 40 08 24 40 00 00 D3 ... -- CPU_WriteMem(484 bytes @ 0x10000000)  returns 0x1E4 (0003ms, 1017ms total)
T4BE8 001:373 JLINK_WriteReg(R0, 0x00000000)  returns 0x00 (0000ms, 1017ms total)
T4BE8 001:373 JLINK_WriteReg(R1, 0x00B71B00)  returns 0x00 (0000ms, 1017ms total)
T4BE8 001:373 JLINK_WriteReg(R2, 0x00000002)  returns 0x00 (0000ms, 1017ms total)
T4BE8 001:373 JLINK_WriteReg(R3, 0x00000000)  returns 0x00 (0000ms, 1017ms total)
T4BE8 001:373 JLINK_WriteReg(R4, 0x00000000)  returns 0x00 (0000ms, 1017ms total)
T4BE8 001:373 JLINK_WriteReg(R5, 0x00000000)  returns 0x00 (0000ms, 1017ms total)
T4BE8 001:373 JLINK_WriteReg(R6, 0x00000000)  returns 0x00 (0000ms, 1017ms total)
T4BE8 001:373 JLINK_WriteReg(R7, 0x00000000)  returns 0x00 (0000ms, 1017ms total)
T4BE8 001:373 JLINK_WriteReg(R8, 0x00000000)  returns 0x00 (0000ms, 1017ms total)
T4BE8 001:373 JLINK_WriteReg(R9, 0x100001DC)  returns 0x00 (0001ms, 1018ms total)
T4BE8 001:374 JLINK_WriteReg(R10, 0x00000000)  returns 0x00 (0000ms, 1018ms total)
T4BE8 001:374 JLINK_WriteReg(R11, 0x00000000)  returns 0x00 (0000ms, 1018ms total)
T4BE8 001:374 JLINK_WriteReg(R12, 0x00000000)  returns 0x00 (0000ms, 1018ms total)
T4BE8 001:374 JLINK_WriteReg(R13 (SP), 0x10000800)  returns 0x00 (0000ms, 1018ms total)
T4BE8 001:374 JLINK_WriteReg(R14, 0x10000001)  returns 0x00 (0000ms, 1018ms total)
T4BE8 001:374 JLINK_WriteReg(R15 (PC), 0x10000044)  returns 0x00 (0000ms, 1018ms total)
T4BE8 001:374 JLINK_WriteReg(XPSR, 0x01000000)  returns 0x00 (0000ms, 1018ms total)
T4BE8 001:374 JLINK_WriteReg(MSP, 0x10000800)  returns 0x00 (0000ms, 1018ms total)
T4BE8 001:374 JLINK_WriteReg(PSP, 0x10000800)  returns 0x00 (0000ms, 1018ms total)
T4BE8 001:374 JLINK_WriteReg(CFBP, 0x00000000)  returns 0x00 (0000ms, 1018ms total)
T4BE8 001:374 JLINK_SetBPEx(Addr = 0x10000000, Type = 0xFFFFFFF2)  returns 0x00000004 (0000ms, 1018ms total)
T4BE8 001:374 JLINK_Go() -- CPU_WriteMem(4 bytes @ 0xE0002000) -- CPU_ReadMem(4 bytes @ 0xE0001000) (0005ms, 1023ms total)
T4BE8 001:379 JLINK_IsHalted()  returns TRUE (0003ms, 1026ms total)
T4BE8 001:382 JLINK_ReadReg(R15 (PC))  returns 0x10000000 (0000ms, 1023ms total)
T4BE8 001:382 JLINK_ClrBPEx(BPHandle = 0x00000004)  returns 0x00 (0000ms, 1023ms total)
T4BE8 001:382 JLINK_ReadReg(R0)  returns 0x00000000 (0000ms, 1023ms total)
T4BE8 001:382 JLINK_WriteMem(0x10000204, 0x0400 Bytes, ...) - Data: 80 AF 00 10 55 6B 00 00 5D 6B 00 00 5F 6B 00 00 ... -- CPU_WriteMem(1024 bytes @ 0x10000204)  returns 0x400 (0005ms, 1028ms total)
T4BE8 001:387 JLINK_WriteReg(R0, 0x00000000)  returns 0x00 (0000ms, 1028ms total)
T4BE8 001:387 JLINK_WriteReg(R1, 0x00000400)  returns 0x00 (0000ms, 1028ms total)
T4BE8 001:387 JLINK_WriteReg(R2, 0x10000204)  returns 0x00 (0000ms, 1028ms total)
T4BE8 001:387 JLINK_WriteReg(R3, 0x00000000)  returns 0x00 (0000ms, 1028ms total)
T4BE8 001:387 JLINK_WriteReg(R4, 0x00000000)  returns 0x00 (0000ms, 1028ms total)
T4BE8 001:387 JLINK_WriteReg(R5, 0x00000000)  returns 0x00 (0000ms, 1028ms total)
T4BE8 001:387 JLINK_WriteReg(R6, 0x00000000)  returns 0x00 (0000ms, 1028ms total)
T4BE8 001:387 JLINK_WriteReg(R7, 0x00000000)  returns 0x00 (0000ms, 1028ms total)
T4BE8 001:387 JLINK_WriteReg(R8, 0x00000000)  returns 0x00 (0000ms, 1028ms total)
T4BE8 001:387 JLINK_WriteReg(R9, 0x100001DC)  returns 0x00 (0000ms, 1028ms total)
T4BE8 001:387 JLINK_WriteReg(R10, 0x00000000)  returns 0x00 (0000ms, 1028ms total)
T4BE8 001:387 JLINK_WriteReg(R11, 0x00000000)  returns 0x00 (0001ms, 1029ms total)
T4BE8 001:388 JLINK_WriteReg(R12, 0x00000000)  returns 0x00 (0000ms, 1029ms total)
T4BE8 001:388 JLINK_WriteReg(R13 (SP), 0x10000800)  returns 0x00 (0000ms, 1029ms total)
T4BE8 001:388 JLINK_WriteReg(R14, 0x10000001)  returns 0x00 (0000ms, 1029ms total)
T4BE8 001:388 JLINK_WriteReg(R15 (PC), 0x10000156)  returns 0x00 (0000ms, 1029ms total)
T4BE8 001:388 JLINK_WriteReg(XPSR, 0x01000000)  returns 0x00 (0000ms, 1029ms total)
T4BE8 001:388 JLINK_WriteReg(MSP, 0x10000800)  returns 0x00 (0000ms, 1029ms total)
T4BE8 001:388 JLINK_WriteReg(PSP, 0x10000800)  returns 0x00 (0000ms, 1029ms total)
T4BE8 001:388 JLINK_WriteReg(CFBP, 0x00000000)  returns 0x00 (0000ms, 1029ms total)
T4BE8 001:388 JLINK_SetBPEx(Addr = 0x10000000, Type = 0xFFFFFFF2)  returns 0x00000005 (0000ms, 1029ms total)
T4BE8 001:388 JLINK_Go() -- CPU_WriteMem(4 bytes @ 0xE0002000) -- CPU_ReadMem(4 bytes @ 0xE0001000) (0004ms, 1033ms total)
T4BE8 001:392 JLINK_IsHalted()  returns FALSE (0001ms, 1034ms total)
T4BE8 001:421 JLINK_IsHalted()  returns TRUE (0003ms, 1036ms total)
T4BE8 001:424 JLINK_ReadReg(R15 (PC))  returns 0x10000000 (0000ms, 1033ms total)
T4BE8 001:424 JLINK_ClrBPEx(BPHandle = 0x00000005)  returns 0x00 (0000ms, 1033ms total)
T4BE8 001:424 JLINK_ReadReg(R0)  returns 0x00000000 (0000ms, 1033ms total)
T4BE8 001:425 JLINK_WriteMem(0x10000204, 0x0400 Bytes, ...) - Data: 08 70 4E 48 40 6D C0 F3 80 20 78 BB 4B 48 C0 6B ... -- CPU_WriteMem(1024 bytes @ 0x10000204)  returns 0x400 (0004ms, 1037ms total)
T4BE8 001:429 JLINK_WriteReg(R0, 0x00000400)  returns 0x00 (0000ms, 1037ms total)
T4BE8 001:429 JLINK_WriteReg(R1, 0x00000400)  returns 0x00 (0000ms, 1037ms total)
T4BE8 001:429 JLINK_WriteReg(R2, 0x10000204)  returns 0x00 (0000ms, 1037ms total)
T4BE8 001:429 JLINK_WriteReg(R3, 0x00000000)  returns 0x00 (0000ms, 1037ms total)
T4BE8 001:429 JLINK_WriteReg(R4, 0x00000000)  returns 0x00 (0000ms, 1037ms total)
T4BE8 001:429 JLINK_WriteReg(R5, 0x00000000)  returns 0x00 (0000ms, 1037ms total)
T4BE8 001:429 JLINK_WriteReg(R6, 0x00000000)  returns 0x00 (0000ms, 1037ms total)
T4BE8 001:429 JLINK_WriteReg(R7, 0x00000000)  returns 0x00 (0000ms, 1037ms total)
T4BE8 001:429 JLINK_WriteReg(R8, 0x00000000)  returns 0x00 (0000ms, 1037ms total)
T4BE8 001:429 JLINK_WriteReg(R9, 0x100001DC)  returns 0x00 (0000ms, 1037ms total)
T4BE8 001:429 JLINK_WriteReg(R10, 0x00000000)  returns 0x00 (0000ms, 1037ms total)
T4BE8 001:429 JLINK_WriteReg(R11, 0x00000000)  returns 0x00 (0000ms, 1037ms total)
T4BE8 001:429 JLINK_WriteReg(R12, 0x00000000)  returns 0x00 (0001ms, 1038ms total)
T4BE8 001:430 JLINK_WriteReg(R13 (SP), 0x10000800)  returns 0x00 (0000ms, 1038ms total)
T4BE8 001:430 JLINK_WriteReg(R14, 0x10000001)  returns 0x00 (0000ms, 1038ms total)
T4BE8 001:430 JLINK_WriteReg(R15 (PC), 0x10000156)  returns 0x00 (0000ms, 1038ms total)
T4BE8 001:430 JLINK_WriteReg(XPSR, 0x01000000)  returns 0x00 (0000ms, 1038ms total)
T4BE8 001:430 JLINK_WriteReg(MSP, 0x10000800)  returns 0x00 (0000ms, 1038ms total)
T4BE8 001:430 JLINK_WriteReg(PSP, 0x10000800)  returns 0x00 (0000ms, 1038ms total)
T4BE8 001:430 JLINK_WriteReg(CFBP, 0x00000000)  returns 0x00 (0000ms, 1038ms total)
T4BE8 001:430 JLINK_SetBPEx(Addr = 0x10000000, Type = 0xFFFFFFF2)  returns 0x00000006 (0000ms, 1038ms total)
T4BE8 001:430 JLINK_Go() -- CPU_WriteMem(4 bytes @ 0xE0002000) -- CPU_ReadMem(4 bytes @ 0xE0001000) (0004ms, 1042ms total)
T4BE8 001:434 JLINK_IsHalted()  returns FALSE (0001ms, 1043ms total)
T4BE8 001:439 JLINK_IsHalted()  returns TRUE (0003ms, 1045ms total)
T4BE8 001:442 JLINK_ReadReg(R15 (PC))  returns 0x10000000 (0000ms, 1042ms total)
T4BE8 001:442 JLINK_ClrBPEx(BPHandle = 0x00000006)  returns 0x00 (0000ms, 1042ms total)
T4BE8 001:442 JLINK_ReadReg(R0)  returns 0x00000000 (0000ms, 1042ms total)
T4BE8 001:442 JLINK_WriteMem(0x10000204, 0x0400 Bytes, ...) - Data: 40 1C C0 B2 2F 90 2F 98 06 28 EF DB 00 20 2F 90 ... -- CPU_WriteMem(1024 bytes @ 0x10000204)  returns 0x400 (0004ms, 1046ms total)
T4BE8 001:446 JLINK_WriteReg(R0, 0x00000800)  returns 0x00 (0000ms, 1046ms total)
T4BE8 001:446 JLINK_WriteReg(R1, 0x00000400)  returns 0x00 (0000ms, 1046ms total)
T4BE8 001:446 JLINK_WriteReg(R2, 0x10000204)  returns 0x00 (0000ms, 1046ms total)
T4BE8 001:446 JLINK_WriteReg(R3, 0x00000000)  returns 0x00 (0000ms, 1046ms total)
T4BE8 001:446 JLINK_WriteReg(R4, 0x00000000)  returns 0x00 (0000ms, 1046ms total)
T4BE8 001:446 JLINK_WriteReg(R5, 0x00000000)  returns 0x00 (0001ms, 1047ms total)
T4BE8 001:447 JLINK_WriteReg(R6, 0x00000000)  returns 0x00 (0000ms, 1047ms total)
T4BE8 001:447 JLINK_WriteReg(R7, 0x00000000)  returns 0x00 (0000ms, 1047ms total)
T4BE8 001:447 JLINK_WriteReg(R8, 0x00000000)  returns 0x00 (0000ms, 1047ms total)
T4BE8 001:447 JLINK_WriteReg(R9, 0x100001DC)  returns 0x00 (0000ms, 1047ms total)
T4BE8 001:447 JLINK_WriteReg(R10, 0x00000000)  returns 0x00 (0000ms, 1047ms total)
T4BE8 001:447 JLINK_WriteReg(R11, 0x00000000)  returns 0x00 (0000ms, 1047ms total)
T4BE8 001:447 JLINK_WriteReg(R12, 0x00000000)  returns 0x00 (0000ms, 1047ms total)
T4BE8 001:447 JLINK_WriteReg(R13 (SP), 0x10000800)  returns 0x00 (0000ms, 1047ms total)
T4BE8 001:447 JLINK_WriteReg(R14, 0x10000001)  returns 0x00 (0000ms, 1047ms total)
T4BE8 001:447 JLINK_WriteReg(R15 (PC), 0x10000156)  returns 0x00 (0000ms, 1047ms total)
T4BE8 001:447 JLINK_WriteReg(XPSR, 0x01000000)  returns 0x00 (0000ms, 1047ms total)
T4BE8 001:447 JLINK_WriteReg(MSP, 0x10000800)  returns 0x00 (0000ms, 1047ms total)
T4BE8 001:447 JLINK_WriteReg(PSP, 0x10000800)  returns 0x00 (0000ms, 1047ms total)
T4BE8 001:447 JLINK_WriteReg(CFBP, 0x00000000)  returns 0x00 (0000ms, 1047ms total)
T4BE8 001:447 JLINK_SetBPEx(Addr = 0x10000000, Type = 0xFFFFFFF2)  returns 0x00000007 (0000ms, 1047ms total)
T4BE8 001:447 JLINK_Go() -- CPU_WriteMem(4 bytes @ 0xE0002000) -- CPU_ReadMem(4 bytes @ 0xE0001000) (0004ms, 1051ms total)
T4BE8 001:451 JLINK_IsHalted()  returns FALSE (0001ms, 1052ms total)
T4BE8 001:453 JLINK_IsHalted()  returns FALSE (0000ms, 1051ms total)
T4BE8 001:454 JLINK_IsHalted()  returns FALSE (0000ms, 1051ms total)
T4BE8 001:455 JLINK_IsHalted()  returns FALSE (0000ms, 1051ms total)
T4BE8 001:456 JLINK_IsHalted()  returns TRUE (0002ms, 1053ms total)
T4BE8 001:458 JLINK_ReadReg(R15 (PC))  returns 0x10000000 (0000ms, 1051ms total)
T4BE8 001:458 JLINK_ClrBPEx(BPHandle = 0x00000007)  returns 0x00 (0000ms, 1051ms total)
T4BE8 001:458 JLINK_ReadReg(R0)  returns 0x00000000 (0001ms, 1052ms total)
T4BE8 001:459 JLINK_WriteMem(0x10000204, 0x0400 Bytes, ...) - Data: 40 02 C2 EB 40 12 9D 48 02 44 2E 98 40 00 0B 30 ... -- CPU_WriteMem(1024 bytes @ 0x10000204)  returns 0x400 (0004ms, 1056ms total)
T4BE8 001:463 JLINK_WriteReg(R0, 0x00000C00)  returns 0x00 (0000ms, 1056ms total)
T4BE8 001:463 JLINK_WriteReg(R1, 0x00000400)  returns 0x00 (0000ms, 1056ms total)
T4BE8 001:463 JLINK_WriteReg(R2, 0x10000204)  returns 0x00 (0000ms, 1056ms total)
T4BE8 001:463 JLINK_WriteReg(R3, 0x00000000)  returns 0x00 (0000ms, 1056ms total)
T4BE8 001:463 JLINK_WriteReg(R4, 0x00000000)  returns 0x00 (0000ms, 1056ms total)
T4BE8 001:463 JLINK_WriteReg(R5, 0x00000000)  returns 0x00 (0000ms, 1056ms total)
T4BE8 001:463 JLINK_WriteReg(R6, 0x00000000)  returns 0x00 (0000ms, 1056ms total)
T4BE8 001:463 JLINK_WriteReg(R7, 0x00000000)  returns 0x00 (0000ms, 1056ms total)
T4BE8 001:463 JLINK_WriteReg(R8, 0x00000000)  returns 0x00 (0000ms, 1056ms total)
T4BE8 001:463 JLINK_WriteReg(R9, 0x100001DC)  returns 0x00 (0000ms, 1056ms total)
T4BE8 001:463 JLINK_WriteReg(R10, 0x00000000)  returns 0x00 (0000ms, 1056ms total)
T4BE8 001:463 JLINK_WriteReg(R11, 0x00000000)  returns 0x00 (0000ms, 1056ms total)
T4BE8 001:463 JLINK_WriteReg(R12, 0x00000000)  returns 0x00 (0000ms, 1056ms total)
T4BE8 001:463 JLINK_WriteReg(R13 (SP), 0x10000800)  returns 0x00 (0000ms, 1056ms total)
T4BE8 001:463 JLINK_WriteReg(R14, 0x10000001)  returns 0x00 (0000ms, 1056ms total)
T4BE8 001:463 JLINK_WriteReg(R15 (PC), 0x10000156)  returns 0x00 (0000ms, 1056ms total)
T4BE8 001:463 JLINK_WriteReg(XPSR, 0x01000000)  returns 0x00 (0000ms, 1056ms total)
T4BE8 001:463 JLINK_WriteReg(MSP, 0x10000800)  returns 0x00 (0001ms, 1057ms total)
T4BE8 001:464 JLINK_WriteReg(PSP, 0x10000800)  returns 0x00 (0000ms, 1057ms total)
T4BE8 001:464 JLINK_WriteReg(CFBP, 0x00000000)  returns 0x00 (0000ms, 1057ms total)
T4BE8 001:464 JLINK_SetBPEx(Addr = 0x10000000, Type = 0xFFFFFFF2)  returns 0x00000008 (0000ms, 1057ms total)
T4BE8 001:464 JLINK_Go() -- CPU_WriteMem(4 bytes @ 0xE0002000) -- CPU_ReadMem(4 bytes @ 0xE0001000) (0004ms, 1061ms total)
T4BE8 001:468 JLINK_IsHalted()  returns FALSE (0001ms, 1062ms total)
T4BE8 001:471 JLINK_IsHalted()  returns FALSE (0001ms, 1062ms total)
T4BE8 001:473 JLINK_IsHalted()  returns TRUE (0003ms, 1064ms total)
T4BE8 001:476 JLINK_ReadReg(R15 (PC))  returns 0x10000000 (0000ms, 1061ms total)
T4BE8 001:476 JLINK_ClrBPEx(BPHandle = 0x00000008)  returns 0x00 (0000ms, 1061ms total)
T4BE8 001:476 JLINK_ReadReg(R0)  returns 0x00000000 (0000ms, 1061ms total)
T4BE8 001:476 JLINK_WriteMem(0x10000204, 0x0400 Bytes, ...) - Data: 09 F0 98 F8 3F E0 23 98 40 1C 23 90 23 98 05 28 ... -- CPU_WriteMem(1024 bytes @ 0x10000204)  returns 0x400 (0004ms, 1065ms total)
T4BE8 001:480 JLINK_WriteReg(R0, 0x00001000)  returns 0x00 (0000ms, 1065ms total)
T4BE8 001:480 JLINK_WriteReg(R1, 0x00000400)  returns 0x00 (0000ms, 1065ms total)
T4BE8 001:480 JLINK_WriteReg(R2, 0x10000204)  returns 0x00 (0000ms, 1065ms total)
T4BE8 001:480 JLINK_WriteReg(R3, 0x00000000)  returns 0x00 (0000ms, 1065ms total)
T4BE8 001:480 JLINK_WriteReg(R4, 0x00000000)  returns 0x00 (0001ms, 1066ms total)
T4BE8 001:481 JLINK_WriteReg(R5, 0x00000000)  returns 0x00 (0000ms, 1066ms total)
T4BE8 001:481 JLINK_WriteReg(R6, 0x00000000)  returns 0x00 (0000ms, 1066ms total)
T4BE8 001:481 JLINK_WriteReg(R7, 0x00000000)  returns 0x00 (0000ms, 1066ms total)
T4BE8 001:481 JLINK_WriteReg(R8, 0x00000000)  returns 0x00 (0000ms, 1066ms total)
T4BE8 001:481 JLINK_WriteReg(R9, 0x100001DC)  returns 0x00 (0000ms, 1066ms total)
T4BE8 001:481 JLINK_WriteReg(R10, 0x00000000)  returns 0x00 (0000ms, 1066ms total)
T4BE8 001:481 JLINK_WriteReg(R11, 0x00000000)  returns 0x00 (0000ms, 1066ms total)
T4BE8 001:481 JLINK_WriteReg(R12, 0x00000000)  returns 0x00 (0000ms, 1066ms total)
T4BE8 001:481 JLINK_WriteReg(R13 (SP), 0x10000800)  returns 0x00 (0000ms, 1066ms total)
T4BE8 001:481 JLINK_WriteReg(R14, 0x10000001)  returns 0x00 (0000ms, 1066ms total)
T4BE8 001:481 JLINK_WriteReg(R15 (PC), 0x10000156)  returns 0x00 (0000ms, 1066ms total)
T4BE8 001:481 JLINK_WriteReg(XPSR, 0x01000000)  returns 0x00 (0000ms, 1066ms total)
T4BE8 001:481 JLINK_WriteReg(MSP, 0x10000800)  returns 0x00 (0000ms, 1066ms total)
T4BE8 001:481 JLINK_WriteReg(PSP, 0x10000800)  returns 0x00 (0000ms, 1066ms total)
T4BE8 001:481 JLINK_WriteReg(CFBP, 0x00000000)  returns 0x00 (0000ms, 1066ms total)
T4BE8 001:481 JLINK_SetBPEx(Addr = 0x10000000, Type = 0xFFFFFFF2)  returns 0x00000009 (0000ms, 1066ms total)
T4BE8 001:482 JLINK_Go() -- CPU_WriteMem(4 bytes @ 0xE0002000) -- CPU_ReadMem(4 bytes @ 0xE0001000) (0004ms, 1071ms total)
T4BE8 001:486 JLINK_IsHalted()  returns FALSE (0001ms, 1072ms total)
T4BE8 001:497 JLINK_IsHalted()  returns TRUE (0003ms, 1074ms total)
T4BE8 001:500 JLINK_ReadReg(R15 (PC))  returns 0x10000000 (0000ms, 1071ms total)
T4BE8 001:500 JLINK_ClrBPEx(BPHandle = 0x00000009)  returns 0x00 (0000ms, 1071ms total)
T4BE8 001:500 JLINK_ReadReg(R0)  returns 0x00000000 (0000ms, 1071ms total)
T4BE8 001:500 JLINK_WriteMem(0x10000204, 0x0400 Bytes, ...) - Data: 2F 9A 0A F0 93 FB 0D A8 02 F0 A3 F9 2F 98 40 1E ... -- CPU_WriteMem(1024 bytes @ 0x10000204)  returns 0x400 (0004ms, 1075ms total)
T4BE8 001:504 JLINK_WriteReg(R0, 0x00001400)  returns 0x00 (0000ms, 1075ms total)
T4BE8 001:504 JLINK_WriteReg(R1, 0x00000400)  returns 0x00 (0000ms, 1075ms total)
T4BE8 001:504 JLINK_WriteReg(R2, 0x10000204)  returns 0x00 (0000ms, 1075ms total)
T4BE8 001:504 JLINK_WriteReg(R3, 0x00000000)  returns 0x00 (0001ms, 1076ms total)
T4BE8 001:505 JLINK_WriteReg(R4, 0x00000000)  returns 0x00 (0000ms, 1076ms total)
T4BE8 001:505 JLINK_WriteReg(R5, 0x00000000)  returns 0x00 (0000ms, 1076ms total)
T4BE8 001:505 JLINK_WriteReg(R6, 0x00000000)  returns 0x00 (0000ms, 1076ms total)
T4BE8 001:505 JLINK_WriteReg(R7, 0x00000000)  returns 0x00 (0000ms, 1076ms total)
T4BE8 001:505 JLINK_WriteReg(R8, 0x00000000)  returns 0x00 (0000ms, 1076ms total)
T4BE8 001:505 JLINK_WriteReg(R9, 0x100001DC)  returns 0x00 (0000ms, 1076ms total)
T4BE8 001:505 JLINK_WriteReg(R10, 0x00000000)  returns 0x00 (0000ms, 1076ms total)
T4BE8 001:505 JLINK_WriteReg(R11, 0x00000000)  returns 0x00 (0000ms, 1076ms total)
T4BE8 001:505 JLINK_WriteReg(R12, 0x00000000)  returns 0x00 (0000ms, 1076ms total)
T4BE8 001:505 JLINK_WriteReg(R13 (SP), 0x10000800)  returns 0x00 (0000ms, 1076ms total)
T4BE8 001:505 JLINK_WriteReg(R14, 0x10000001)  returns 0x00 (0000ms, 1076ms total)
T4BE8 001:505 JLINK_WriteReg(R15 (PC), 0x10000156)  returns 0x00 (0000ms, 1076ms total)
T4BE8 001:505 JLINK_WriteReg(XPSR, 0x01000000)  returns 0x00 (0000ms, 1076ms total)
T4BE8 001:505 JLINK_WriteReg(MSP, 0x10000800)  returns 0x00 (0000ms, 1076ms total)
T4BE8 001:505 JLINK_WriteReg(PSP, 0x10000800)  returns 0x00 (0000ms, 1076ms total)
T4BE8 001:505 JLINK_WriteReg(CFBP, 0x00000000)  returns 0x00 (0000ms, 1076ms total)
T4BE8 001:505 JLINK_SetBPEx(Addr = 0x10000000, Type = 0xFFFFFFF2)  returns 0x0000000A (0000ms, 1076ms total)
T4BE8 001:505 JLINK_Go() -- CPU_WriteMem(4 bytes @ 0xE0002000) -- CPU_ReadMem(4 bytes @ 0xE0001000) (0004ms, 1080ms total)
T4BE8 001:509 JLINK_IsHalted()  returns FALSE (0004ms, 1084ms total)
T4BE8 001:514 JLINK_IsHalted()  returns TRUE (0003ms, 1083ms total)
T4BE8 001:517 JLINK_ReadReg(R15 (PC))  returns 0x10000000 (0000ms, 1080ms total)
T4BE8 001:517 JLINK_ClrBPEx(BPHandle = 0x0000000A)  returns 0x00 (0000ms, 1080ms total)
T4BE8 001:517 JLINK_ReadReg(R0)  returns 0x00000000 (0000ms, 1080ms total)
T4BE8 001:517 JLINK_WriteMem(0x10000204, 0x0400 Bytes, ...) - Data: 00 00 00 00 42 5F 3F 3E 00 00 00 00 8D F8 A4 00 ... -- CPU_WriteMem(1024 bytes @ 0x10000204)  returns 0x400 (0004ms, 1084ms total)
T4BE8 001:521 JLINK_WriteReg(R0, 0x00001800)  returns 0x00 (0000ms, 1084ms total)
T4BE8 001:521 JLINK_WriteReg(R1, 0x00000400)  returns 0x00 (0000ms, 1084ms total)
T4BE8 001:521 JLINK_WriteReg(R2, 0x10000204)  returns 0x00 (0000ms, 1084ms total)
T4BE8 001:521 JLINK_WriteReg(R3, 0x00000000)  returns 0x00 (0000ms, 1084ms total)
T4BE8 001:521 JLINK_WriteReg(R4, 0x00000000)  returns 0x00 (0001ms, 1085ms total)
T4BE8 001:522 JLINK_WriteReg(R5, 0x00000000)  returns 0x00 (0000ms, 1085ms total)
T4BE8 001:522 JLINK_WriteReg(R6, 0x00000000)  returns 0x00 (0000ms, 1085ms total)
T4BE8 001:522 JLINK_WriteReg(R7, 0x00000000)  returns 0x00 (0000ms, 1085ms total)
T4BE8 001:522 JLINK_WriteReg(R8, 0x00000000)  returns 0x00 (0000ms, 1085ms total)
T4BE8 001:522 JLINK_WriteReg(R9, 0x100001DC)  returns 0x00 (0000ms, 1085ms total)
T4BE8 001:522 JLINK_WriteReg(R10, 0x00000000)  returns 0x00 (0000ms, 1085ms total)
T4BE8 001:522 JLINK_WriteReg(R11, 0x00000000)  returns 0x00 (0000ms, 1085ms total)
T4BE8 001:522 JLINK_WriteReg(R12, 0x00000000)  returns 0x00 (0000ms, 1085ms total)
T4BE8 001:522 JLINK_WriteReg(R13 (SP), 0x10000800)  returns 0x00 (0000ms, 1085ms total)
T4BE8 001:522 JLINK_WriteReg(R14, 0x10000001)  returns 0x00 (0000ms, 1085ms total)
T4BE8 001:522 JLINK_WriteReg(R15 (PC), 0x10000156)  returns 0x00 (0000ms, 1085ms total)
T4BE8 001:522 JLINK_WriteReg(XPSR, 0x01000000)  returns 0x00 (0000ms, 1085ms total)
T4BE8 001:522 JLINK_WriteReg(MSP, 0x10000800)  returns 0x00 (0000ms, 1085ms total)
T4BE8 001:522 JLINK_WriteReg(PSP, 0x10000800)  returns 0x00 (0000ms, 1085ms total)
T4BE8 001:522 JLINK_WriteReg(CFBP, 0x00000000)  returns 0x00 (0000ms, 1085ms total)
T4BE8 001:522 JLINK_SetBPEx(Addr = 0x10000000, Type = 0xFFFFFFF2)  returns 0x0000000B (0000ms, 1085ms total)
T4BE8 001:522 JLINK_Go() -- CPU_WriteMem(4 bytes @ 0xE0002000) -- CPU_ReadMem(4 bytes @ 0xE0001000) (0005ms, 1090ms total)
T4BE8 001:527 JLINK_IsHalted()  returns FALSE (0000ms, 1090ms total)
T4BE8 001:529 JLINK_IsHalted()  returns FALSE (0001ms, 1091ms total)
T4BE8 001:531 JLINK_IsHalted()  returns TRUE (0003ms, 1093ms total)
T4BE8 001:534 JLINK_ReadReg(R15 (PC))  returns 0x10000000 (0000ms, 1090ms total)
T4BE8 001:534 JLINK_ClrBPEx(BPHandle = 0x0000000B)  returns 0x00 (0000ms, 1090ms total)
T4BE8 001:534 JLINK_ReadReg(R0)  returns 0x00000000 (0000ms, 1090ms total)
T4BE8 001:534 JLINK_WriteMem(0x10000204, 0x0400 Bytes, ...) - Data: 08 F0 28 FF 80 B3 30 98 C0 7B 3E 28 2D D1 00 20 ... -- CPU_WriteMem(1024 bytes @ 0x10000204)  returns 0x400 (0004ms, 1094ms total)
T4BE8 001:538 JLINK_WriteReg(R0, 0x00001C00)  returns 0x00 (0000ms, 1094ms total)
T4BE8 001:538 JLINK_WriteReg(R1, 0x00000400)  returns 0x00 (0000ms, 1094ms total)
T4BE8 001:538 JLINK_WriteReg(R2, 0x10000204)  returns 0x00 (0000ms, 1094ms total)
T4BE8 001:538 JLINK_WriteReg(R3, 0x00000000)  returns 0x00 (0000ms, 1094ms total)
T4BE8 001:538 JLINK_WriteReg(R4, 0x00000000)  returns 0x00 (0000ms, 1094ms total)
T4BE8 001:538 JLINK_WriteReg(R5, 0x00000000)  returns 0x00 (0001ms, 1095ms total)
T4BE8 001:539 JLINK_WriteReg(R6, 0x00000000)  returns 0x00 (0000ms, 1095ms total)
T4BE8 001:539 JLINK_WriteReg(R7, 0x00000000)  returns 0x00 (0000ms, 1095ms total)
T4BE8 001:539 JLINK_WriteReg(R8, 0x00000000)  returns 0x00 (0000ms, 1095ms total)
T4BE8 001:539 JLINK_WriteReg(R9, 0x100001DC)  returns 0x00 (0000ms, 1095ms total)
T4BE8 001:539 JLINK_WriteReg(R10, 0x00000000)  returns 0x00 (0000ms, 1095ms total)
T4BE8 001:539 JLINK_WriteReg(R11, 0x00000000)  returns 0x00 (0000ms, 1095ms total)
T4BE8 001:539 JLINK_WriteReg(R12, 0x00000000)  returns 0x00 (0000ms, 1095ms total)
T4BE8 001:539 JLINK_WriteReg(R13 (SP), 0x10000800)  returns 0x00 (0000ms, 1095ms total)
T4BE8 001:539 JLINK_WriteReg(R14, 0x10000001)  returns 0x00 (0000ms, 1095ms total)
T4BE8 001:539 JLINK_WriteReg(R15 (PC), 0x10000156)  returns 0x00 (0000ms, 1095ms total)
T4BE8 001:539 JLINK_WriteReg(XPSR, 0x01000000)  returns 0x00 (0000ms, 1095ms total)
T4BE8 001:539 JLINK_WriteReg(MSP, 0x10000800)  returns 0x00 (0000ms, 1095ms total)
T4BE8 001:539 JLINK_WriteReg(PSP, 0x10000800)  returns 0x00 (0000ms, 1095ms total)
T4BE8 001:539 JLINK_WriteReg(CFBP, 0x00000000)  returns 0x00 (0000ms, 1095ms total)
T4BE8 001:539 JLINK_SetBPEx(Addr = 0x10000000, Type = 0xFFFFFFF2)  returns 0x0000000C (0000ms, 1095ms total)
T4BE8 001:539 JLINK_Go() -- CPU_WriteMem(4 bytes @ 0xE0002000) -- CPU_ReadMem(4 bytes @ 0xE0001000) (0004ms, 1099ms total)
T4BE8 001:543 JLINK_IsHalted()  returns FALSE (0001ms, 1100ms total)
T4BE8 001:548 JLINK_IsHalted()  returns TRUE (0003ms, 1102ms total)
T4BE8 001:551 JLINK_ReadReg(R15 (PC))  returns 0x10000000 (0000ms, 1099ms total)
T4BE8 001:551 JLINK_ClrBPEx(BPHandle = 0x0000000C)  returns 0x00 (0000ms, 1099ms total)
T4BE8 001:551 JLINK_ReadReg(R0)  returns 0x00000000 (0000ms, 1099ms total)
T4BE8 001:551 JLINK_WriteMem(0x10000204, 0x0400 Bytes, ...) - Data: 95 FB F0 F1 00 FB 11 50 30 30 C1 B2 24 20 01 55 ... -- CPU_WriteMem(1024 bytes @ 0x10000204)  returns 0x400 (0004ms, 1103ms total)
T4BE8 001:555 JLINK_WriteReg(R0, 0x00002000)  returns 0x00 (0000ms, 1103ms total)
T4BE8 001:555 JLINK_WriteReg(R1, 0x00000400)  returns 0x00 (0000ms, 1103ms total)
T4BE8 001:555 JLINK_WriteReg(R2, 0x10000204)  returns 0x00 (0000ms, 1103ms total)
T4BE8 001:555 JLINK_WriteReg(R3, 0x00000000)  returns 0x00 (0000ms, 1103ms total)
T4BE8 001:555 JLINK_WriteReg(R4, 0x00000000)  returns 0x00 (0000ms, 1103ms total)
T4BE8 001:555 JLINK_WriteReg(R5, 0x00000000)  returns 0x00 (0001ms, 1104ms total)
T4BE8 001:556 JLINK_WriteReg(R6, 0x00000000)  returns 0x00 (0000ms, 1104ms total)
T4BE8 001:556 JLINK_WriteReg(R7, 0x00000000)  returns 0x00 (0000ms, 1104ms total)
T4BE8 001:556 JLINK_WriteReg(R8, 0x00000000)  returns 0x00 (0000ms, 1104ms total)
T4BE8 001:556 JLINK_WriteReg(R9, 0x100001DC)  returns 0x00 (0000ms, 1104ms total)
T4BE8 001:556 JLINK_WriteReg(R10, 0x00000000)  returns 0x00 (0000ms, 1104ms total)
T4BE8 001:556 JLINK_WriteReg(R11, 0x00000000)  returns 0x00 (0000ms, 1104ms total)
T4BE8 001:556 JLINK_WriteReg(R12, 0x00000000)  returns 0x00 (0000ms, 1104ms total)
T4BE8 001:556 JLINK_WriteReg(R13 (SP), 0x10000800)  returns 0x00 (0000ms, 1104ms total)
T4BE8 001:556 JLINK_WriteReg(R14, 0x10000001)  returns 0x00 (0000ms, 1104ms total)
T4BE8 001:556 JLINK_WriteReg(R15 (PC), 0x10000156)  returns 0x00 (0000ms, 1104ms total)
T4BE8 001:556 JLINK_WriteReg(XPSR, 0x01000000)  returns 0x00 (0000ms, 1104ms total)
T4BE8 001:556 JLINK_WriteReg(MSP, 0x10000800)  returns 0x00 (0000ms, 1104ms total)
T4BE8 001:556 JLINK_WriteReg(PSP, 0x10000800)  returns 0x00 (0000ms, 1104ms total)
T4BE8 001:556 JLINK_WriteReg(CFBP, 0x00000000)  returns 0x00 (0000ms, 1104ms total)
T4BE8 001:556 JLINK_SetBPEx(Addr = 0x10000000, Type = 0xFFFFFFF2)  returns 0x0000000D (0000ms, 1104ms total)
T4BE8 001:556 JLINK_Go() -- CPU_WriteMem(4 bytes @ 0xE0002000) -- CPU_ReadMem(4 bytes @ 0xE0001000) (0004ms, 1108ms total)
T4BE8 001:560 JLINK_IsHalted()  returns FALSE (0001ms, 1109ms total)
T4BE8 001:563 JLINK_IsHalted()  returns FALSE (0001ms, 1109ms total)
T4BE8 001:565 JLINK_IsHalted()  returns TRUE (0003ms, 1111ms total)
T4BE8 001:568 JLINK_ReadReg(R15 (PC))  returns 0x10000000 (0000ms, 1108ms total)
T4BE8 001:568 JLINK_ClrBPEx(BPHandle = 0x0000000D)  returns 0x00 (0000ms, 1108ms total)
T4BE8 001:568 JLINK_ReadReg(R0)  returns 0x00000000 (0000ms, 1108ms total)
T4BE8 001:568 JLINK_WriteMem(0x10000204, 0x0400 Bytes, ...) - Data: 09 F0 94 FB 30 E0 25 F0 00 41 27 46 3A 4A 3B 4B ... -- CPU_WriteMem(1024 bytes @ 0x10000204)  returns 0x400 (0004ms, 1112ms total)
T4BE8 001:572 JLINK_WriteReg(R0, 0x00002400)  returns 0x00 (0000ms, 1112ms total)
T4BE8 001:572 JLINK_WriteReg(R1, 0x00000400)  returns 0x00 (0000ms, 1112ms total)
T4BE8 001:572 JLINK_WriteReg(R2, 0x10000204)  returns 0x00 (0001ms, 1113ms total)
T4BE8 001:573 JLINK_WriteReg(R3, 0x00000000)  returns 0x00 (0000ms, 1113ms total)
T4BE8 001:573 JLINK_WriteReg(R4, 0x00000000)  returns 0x00 (0000ms, 1113ms total)
T4BE8 001:573 JLINK_WriteReg(R5, 0x00000000)  returns 0x00 (0000ms, 1113ms total)
T4BE8 001:573 JLINK_WriteReg(R6, 0x00000000)  returns 0x00 (0000ms, 1113ms total)
T4BE8 001:573 JLINK_WriteReg(R7, 0x00000000)  returns 0x00 (0000ms, 1113ms total)
T4BE8 001:573 JLINK_WriteReg(R8, 0x00000000)  returns 0x00 (0000ms, 1113ms total)
T4BE8 001:573 JLINK_WriteReg(R9, 0x100001DC)  returns 0x00 (0000ms, 1113ms total)
T4BE8 001:573 JLINK_WriteReg(R10, 0x00000000)  returns 0x00 (0000ms, 1113ms total)
T4BE8 001:573 JLINK_WriteReg(R11, 0x00000000)  returns 0x00 (0000ms, 1113ms total)
T4BE8 001:573 JLINK_WriteReg(R12, 0x00000000)  returns 0x00 (0000ms, 1113ms total)
T4BE8 001:573 JLINK_WriteReg(R13 (SP), 0x10000800)  returns 0x00 (0000ms, 1113ms total)
T4BE8 001:573 JLINK_WriteReg(R14, 0x10000001)  returns 0x00 (0000ms, 1113ms total)
T4BE8 001:573 JLINK_WriteReg(R15 (PC), 0x10000156)  returns 0x00 (0000ms, 1113ms total)
T4BE8 001:573 JLINK_WriteReg(XPSR, 0x01000000)  returns 0x00 (0000ms, 1113ms total)
T4BE8 001:573 JLINK_WriteReg(MSP, 0x10000800)  returns 0x00 (0000ms, 1113ms total)
T4BE8 001:573 JLINK_WriteReg(PSP, 0x10000800)  returns 0x00 (0000ms, 1113ms total)
T4BE8 001:573 JLINK_WriteReg(CFBP, 0x00000000)  returns 0x00 (0000ms, 1113ms total)
T4BE8 001:573 JLINK_SetBPEx(Addr = 0x10000000, Type = 0xFFFFFFF2)  returns 0x0000000E (0000ms, 1113ms total)
T4BE8 001:573 JLINK_Go() -- CPU_WriteMem(4 bytes @ 0xE0002000) -- CPU_ReadMem(4 bytes @ 0xE0001000) (0009ms, 1122ms total)
T4BE8 001:582 JLINK_IsHalted()  returns FALSE (0001ms, 1123ms total)
T4BE8 001:585 JLINK_IsHalted()  returns FALSE (0001ms, 1123ms total)
T4BE8 001:597 JLINK_IsHalted()  returns TRUE (0003ms, 1125ms total)
T4BE8 001:600 JLINK_ReadReg(R15 (PC))  returns 0x10000000 (0000ms, 1122ms total)
T4BE8 001:600 JLINK_ClrBPEx(BPHandle = 0x0000000E)  returns 0x00 (0000ms, 1122ms total)
T4BE8 001:600 JLINK_ReadReg(R0)  returns 0x00000000 (0000ms, 1122ms total)
T4BE8 001:600 JLINK_WriteMem(0x10000204, 0x0400 Bytes, ...) - Data: 04 46 20 78 7D 28 01 D1 60 1C F2 E7 FF F7 97 FC ... -- CPU_WriteMem(1024 bytes @ 0x10000204)  returns 0x400 (0004ms, 1126ms total)
T4BE8 001:604 JLINK_WriteReg(R0, 0x00002800)  returns 0x00 (0000ms, 1126ms total)
T4BE8 001:604 JLINK_WriteReg(R1, 0x00000400)  returns 0x00 (0000ms, 1126ms total)
T4BE8 001:604 JLINK_WriteReg(R2, 0x10000204)  returns 0x00 (0000ms, 1126ms total)
T4BE8 001:604 JLINK_WriteReg(R3, 0x00000000)  returns 0x00 (0000ms, 1126ms total)
T4BE8 001:604 JLINK_WriteReg(R4, 0x00000000)  returns 0x00 (0000ms, 1126ms total)
T4BE8 001:604 JLINK_WriteReg(R5, 0x00000000)  returns 0x00 (0001ms, 1127ms total)
T4BE8 001:605 JLINK_WriteReg(R6, 0x00000000)  returns 0x00 (0000ms, 1127ms total)
T4BE8 001:605 JLINK_WriteReg(R7, 0x00000000)  returns 0x00 (0000ms, 1127ms total)
T4BE8 001:605 JLINK_WriteReg(R8, 0x00000000)  returns 0x00 (0000ms, 1127ms total)
T4BE8 001:605 JLINK_WriteReg(R9, 0x100001DC)  returns 0x00 (0000ms, 1127ms total)
T4BE8 001:605 JLINK_WriteReg(R10, 0x00000000)  returns 0x00 (0000ms, 1127ms total)
T4BE8 001:605 JLINK_WriteReg(R11, 0x00000000)  returns 0x00 (0000ms, 1127ms total)
T4BE8 001:605 JLINK_WriteReg(R12, 0x00000000)  returns 0x00 (0000ms, 1127ms total)
T4BE8 001:605 JLINK_WriteReg(R13 (SP), 0x10000800)  returns 0x00 (0000ms, 1127ms total)
T4BE8 001:605 JLINK_WriteReg(R14, 0x10000001)  returns 0x00 (0000ms, 1127ms total)
T4BE8 001:605 JLINK_WriteReg(R15 (PC), 0x10000156)  returns 0x00 (0000ms, 1127ms total)
T4BE8 001:605 JLINK_WriteReg(XPSR, 0x01000000)  returns 0x00 (0000ms, 1127ms total)
T4BE8 001:605 JLINK_WriteReg(MSP, 0x10000800)  returns 0x00 (0000ms, 1127ms total)
T4BE8 001:605 JLINK_WriteReg(PSP, 0x10000800)  returns 0x00 (0000ms, 1127ms total)
T4BE8 001:605 JLINK_WriteReg(CFBP, 0x00000000)  returns 0x00 (0000ms, 1127ms total)
T4BE8 001:605 JLINK_SetBPEx(Addr = 0x10000000, Type = 0xFFFFFFF2)  returns 0x0000000F (0000ms, 1127ms total)
T4BE8 001:605 JLINK_Go() -- CPU_WriteMem(4 bytes @ 0xE0002000) -- CPU_ReadMem(4 bytes @ 0xE0001000) (0004ms, 1131ms total)
T4BE8 001:609 JLINK_IsHalted()  returns FALSE (0001ms, 1132ms total)
T4BE8 001:611 JLINK_IsHalted()  returns FALSE (0000ms, 1131ms total)
T4BE8 001:612 JLINK_IsHalted()  returns FALSE (0000ms, 1131ms total)
T4BE8 001:613 JLINK_IsHalted()  returns FALSE (0000ms, 1131ms total)
T4BE8 001:614 JLINK_IsHalted()  returns TRUE (0002ms, 1133ms total)
T4BE8 001:616 JLINK_ReadReg(R15 (PC))  returns 0x10000000 (0000ms, 1131ms total)
T4BE8 001:616 JLINK_ClrBPEx(BPHandle = 0x0000000F)  returns 0x00 (0000ms, 1131ms total)
T4BE8 001:617 JLINK_ReadReg(R0)  returns 0x00000000 (0000ms, 1131ms total)
T4BE8 001:617 JLINK_WriteMem(0x10000204, 0x0400 Bytes, ...) - Data: CE D1 01 98 20 B9 67 49 04 98 09 68 88 47 07 90 ... -- CPU_WriteMem(1024 bytes @ 0x10000204)  returns 0x400 (0004ms, 1135ms total)
T4BE8 001:621 JLINK_WriteReg(R0, 0x00002C00)  returns 0x00 (0000ms, 1135ms total)
T4BE8 001:621 JLINK_WriteReg(R1, 0x00000400)  returns 0x00 (0000ms, 1135ms total)
T4BE8 001:621 JLINK_WriteReg(R2, 0x10000204)  returns 0x00 (0000ms, 1135ms total)
T4BE8 001:621 JLINK_WriteReg(R3, 0x00000000)  returns 0x00 (0000ms, 1135ms total)
T4BE8 001:621 JLINK_WriteReg(R4, 0x00000000)  returns 0x00 (0000ms, 1135ms total)
T4BE8 001:621 JLINK_WriteReg(R5, 0x00000000)  returns 0x00 (0000ms, 1135ms total)
T4BE8 001:621 JLINK_WriteReg(R6, 0x00000000)  returns 0x00 (0000ms, 1135ms total)
T4BE8 001:621 JLINK_WriteReg(R7, 0x00000000)  returns 0x00 (0000ms, 1135ms total)
